# vsim -coverage -novopt apb_top -sv_seed random -c -do "coverage save -onexit apb_low_data_range_test_2.ucdb; run -all; exit" "+UVM_TESTNAME=apb_low_data_range_test" 
# Start time: 13:20:02 on Jun 20,2024
# ** Warning: (vsim-8891) All optimizations are turned off because the -novopt switch is in effect. This will cause your simulation to run very slowly. If you are using this switch to preserve visibility for Debug or PLI features please see the User's Manual section on Preserving Object Visibility with vopt.
# 
# //  Questa Sim-64
# //  Version 10.4e win64 Apr  9 2016
# //
# //  Copyright 1991-2016 Mentor Graphics Corporation
# //  All Rights Reserved.
# //
# //  THIS WORK CONTAINS TRADE SECRET AND PROPRIETARY INFORMATION
# //  WHICH IS THE PROPERTY OF MENTOR GRAPHICS CORPORATION OR ITS
# //  LICENSORS AND IS SUBJECT TO LICENSE TERMS.
# //  THIS DOCUMENT CONTAINS TRADE SECRETS AND COMMERCIAL OR FINANCIAL
# //  INFORMATION THAT ARE PRIVILEGED, CONFIDENTIAL, AND EXEMPT FROM
# //  DISCLOSURE UNDER THE FREEDOM OF INFORMATION ACT, 5 U.S.C. SECTION 552.
# //  FURTHERMORE, THIS INFORMATION IS PROHIBITED FROM DISCLOSURE UNDER
# //  THE TRADE SECRETS ACT, 18 U.S.C. SECTION 1905.
# //
# Loading sv_std.std
# Loading mtiUvm.uvm_pkg
# Loading work.apb_pkg
# Loading work.apb_top_sv_unit
# Loading work.apb_top
# Loading work.apb_inf
# Loading mtiUvm.questa_uvm_pkg
# Loading C:/questasim64_10.4e/uvm-1.1d\win64\uvm_dpi.dll
# Sv_Seed = 2765852202
# coverage save -onexit apb_low_data_range_test_2.ucdb
#  run -all
# ----------------------------------------------------------------
# UVM-1.1d
# (C) 2007-2013 Mentor Graphics Corporation
# (C) 2007-2013 Cadence Design Systems, Inc.
# (C) 2006-2013 Synopsys, Inc.
# (C) 2011-2013 Cypress Semiconductor Corp.
# ----------------------------------------------------------------
# 
#   ***********       IMPORTANT RELEASE NOTES         ************
# 
#   You are using a version of the UVM library that has been compiled
#   with `UVM_NO_DEPRECATED undefined.
#   See http://www.eda.org/svdb/view.php?id=3313 for more details.
# 
#   You are using a version of the UVM library that has been compiled
#   with `UVM_OBJECT_MUST_HAVE_CONSTRUCTOR undefined.
#   See http://www.eda.org/svdb/view.php?id=3770 for more details.
# 
#       (Specify +UVM_NO_RELNOTES to turn off this notice)
# 
# UVM_INFO verilog_src/questa_uvm_pkg-1.2/src/questa_uvm_pkg.sv(215) @ 0: reporter [Questa UVM] QUESTA_UVM-1.2.3
# UVM_INFO verilog_src/questa_uvm_pkg-1.2/src/questa_uvm_pkg.sv(217) @ 0: reporter [Questa UVM]  questa_uvm::init(+struct)
# UVM_INFO @ 0: reporter [RNTST] Running test apb_low_data_range_test...
# ------ Execution Done Build-Phase in Test -------
# ------ Execution Done Build-Phase in ENV -------
# ------- Executing Build-Phase in Agent ---------
# ------ Execution Done Build-Phase in Agent -------
# ------- Executing Build-Phase in Agent ---------
# ------ Execution Done Build-Phase in Agent -------
# ------- Executing Connect-Phase in Agent ---------
# ------- Execution Completed of Connect-Phase in Agent ---------
# ------- Executing Connect-Phase in Agent ---------
# ------- Execution Completed of Connect-Phase in Agent ---------
# UVM_INFO @ 0: reporter [UVMTOP] UVM testbench topology:
# ------------------------------------------------------------------
# Name                       Type                        Size  Value
# ------------------------------------------------------------------
# uvm_test_top               apb_low_data_range_test     -     @464 
#   env_hm                   apb_env                     -     @474 
#     agent_hm               apb_master_agent            -     @499 
#       drv_hm               apb_master_drv              -     @657 
#         rsp_port           uvm_analysis_port           -     @674 
#         seq_item_port      uvm_seq_item_pull_port      -     @665 
#       mon_hm               apb_master_mon              -     @640 
#         mas_mon_ap         uvm_analysis_port           -     @648 
#       seqr_hm              apb_master_seqr             -     @687 
#         rsp_export         uvm_analysis_export         -     @695 
#         seq_item_export    uvm_seq_item_pull_imp       -     @801 
#         arbitration_queue  array                       0     -    
#         lock_queue         array                       0     -    
#         num_last_reqs      integral                    32    'd1  
#         num_last_rsps      integral                    32    'd1  
#     agent_hs               apb_slave_agent             -     @507 
#       drv_hs               apb_slave_drv               -     @843 
#         rsp_port           uvm_analysis_port           -     @860 
#         seq_item_port      uvm_seq_item_pull_port      -     @851 
#       mon_hs               apb_slave_mon               -     @826 
#         slv_mon_ap         uvm_analysis_port           -     @834 
#       seqr_hs              apb_slave_seqr              -     @869 
#         rsp_export         uvm_analysis_export         -     @877 
#         seq_item_export    uvm_seq_item_pull_imp       -     @983 
#         arbitration_queue  array                       0     -    
#         lock_queue         array                       0     -    
#         num_last_reqs      integral                    32    'd1  
#         num_last_rsps      integral                    32    'd1  
#     sb_h                   apb_sb                      -     @515 
#       mas_mon_fifo_h       uvm_tlm_analysis_fifo #(T)  -     @523 
#         analysis_export    uvm_analysis_imp            -     @567 
#         get_ap             uvm_analysis_port           -     @558 
#         get_peek_export    uvm_get_peek_imp            -     @540 
#         put_ap             uvm_analysis_port           -     @549 
#         put_export         uvm_put_imp                 -     @531 
#       slv_mon_fifo_h       uvm_tlm_analysis_fifo #(T)  -     @576 
#         analysis_export    uvm_analysis_imp            -     @620 
#         get_ap             uvm_analysis_port           -     @611 
#         get_peek_export    uvm_get_peek_imp            -     @593 
#         put_ap             uvm_analysis_port           -     @602 
#         put_export         uvm_put_imp                 -     @584 
# ------------------------------------------------------------------
# 
# ------ Execution Done End-of_ELB in Test -------
# 
# -------------------- Master Transaction : 1 --------------------
# 
# UVM_INFO ../ENV/apb_slave_drv.sv(29) @ 0: uvm_test_top.env_hm.agent_hs.drv_hs [apb_slave_drv] Data Received at SLAVE-DRIVER = 
# --------------------------------------------------------------------------------------------------
# Name                           Type             Size  Value                                       
# --------------------------------------------------------------------------------------------------
# trans_hs                       apb_slave_trans  -     @1025                                       
#   PRESETn                      integral         1     'h0                                         
#   PRDATA                       integral         8     'h0                                         
#   PREADY                       integral         1     'h1                                         
#   PSEL                         integral         1     'h0                                         
#   PWRITE                       integral         1     'h0                                         
#   PENABLE                      integral         1     'h0                                         
#   PADDR                        integral         8     'h0                                         
#   PWDATA                       integral         8     'h0                                         
#   no_of_wait_cycles            integral         32    'h3                                         
#   wait_enable                  integral         1     'h1                                         
#   begin_time                   time             64    0                                           
#   depth                        int              32    'd2                                         
#   parent sequence (name)       string           7     seqs_hs                                     
#   parent sequence (full name)  string           44    uvm_test_top.env_hm.agent_hs.seqr_hs.seqs_hs
#   sequencer                    string           36    uvm_test_top.env_hm.agent_hs.seqr_hs        
# --------------------------------------------------------------------------------------------------
# 
# UVM_INFO ../TEST/apb_low_data_range_seqs.sv(24) @ 5: uvm_test_top.env_hm.agent_hm.seqr_hm@@seqs_tc [apb_low_data_range_seqs] Generated Data From Master SEQS = 
# ---------------------------------------------------------------------------------------------------
# Name                           Type              Size  Value                                       
# ---------------------------------------------------------------------------------------------------
# trans_hm                       apb_master_trans  -     @1021                                       
#   PWRITE                       integral          1     'h1                                         
#   PRESETn                      integral          1     'h1                                         
#   PENABLE                      integral          1     'h0                                         
#   PSEL                         integral          1     'h0                                         
#   PWDATA                       integral          8     'h23                                        
#   PADDR                        integral          8     'hd8                                        
#   PREADY                       integral          1     'h0                                         
#   PRDATA                       integral          8     'h0                                         
#   begin_time                   time              64    5                                           
#   depth                        int               32    'd2                                         
#   parent sequence (name)       string            7     seqs_tc                                     
#   parent sequence (full name)  string            44    uvm_test_top.env_hm.agent_hm.seqr_hm.seqs_tc
#   sequencer                    string            36    uvm_test_top.env_hm.agent_hm.seqr_hm        
# ---------------------------------------------------------------------------------------------------
# 
# UVM_INFO ../ENV/apb_master_drv.sv(68) @ 5: uvm_test_top.env_hm.agent_hm.drv_hm [apb_master_drv] Data Received at MASTER-DRIVER = 
# ---------------------------------------------------------------------------------------------------
# Name                           Type              Size  Value                                       
# ---------------------------------------------------------------------------------------------------
# trans_hm                       apb_master_trans  -     @1021                                       
#   PWRITE                       integral          1     'h1                                         
#   PRESETn                      integral          1     'h1                                         
#   PENABLE                      integral          1     'h0                                         
#   PSEL                         integral          1     'h0                                         
#   PWDATA                       integral          8     'h23                                        
#   PADDR                        integral          8     'hd8                                        
#   PREADY                       integral          1     'h0                                         
#   PRDATA                       integral          8     'h0                                         
#   begin_time                   time              64    5                                           
#   depth                        int               32    'd2                                         
#   parent sequence (name)       string            7     seqs_tc                                     
#   parent sequence (full name)  string            44    uvm_test_top.env_hm.agent_hm.seqr_hm.seqs_tc
#   sequencer                    string            36    uvm_test_top.env_hm.agent_hm.seqr_hm        
# ---------------------------------------------------------------------------------------------------
# 
# UVM_INFO ../ENV/apb_master_mon.sv(73) @ 15: uvm_test_top.env_hm.agent_hm.mon_hm [apb_master_mon] Data Sent from MASTER-MONITOR to SCOREBOARD = 
# ----------------------------------------
# Name       Type              Size  Value
# ----------------------------------------
# trans_hm   apb_master_trans  -     @1013
#   PWRITE   integral          1     'h1  
#   PRESETn  integral          1     'h1  
#   PENABLE  integral          1     'h1  
#   PSEL     integral          1     'h0  
#   PWDATA   integral          8     'h23 
#   PADDR    integral          8     'hd8 
#   PREADY   integral          1     'h1  
#   PRDATA   integral          8     'h0  
# ----------------------------------------
# 
# UVM_INFO ../ENV/apb_master_mon.sv(43) @ 15: uvm_test_top.env_hm.agent_hm.mon_hm [apb_master_mon] Data Received at MASTER-MONITOR from SLAVE-DRIVER = 
# ----------------------------------------
# Name       Type              Size  Value
# ----------------------------------------
# trans_hm   apb_master_trans  -     @1013
#   PWRITE   integral          1     'h1  
#   PRESETn  integral          1     'h1  
#   PENABLE  integral          1     'h1  
#   PSEL     integral          1     'h0  
#   PWDATA   integral          8     'h23 
#   PADDR    integral          8     'hd8 
#   PREADY   integral          1     'h1  
#   PRDATA   integral          8     'h0  
# ----------------------------------------
# 
# UVM_INFO ../ENV/apb_slave_mon.sv(62) @ 15: uvm_test_top.env_hm.agent_hs.mon_hs [apb_slave_mon] Write Transaction Received at SLAVE-MONITOR from MASTER-DRIVER = 
# "-------------------------------------------------
# Name                 Type             Size  Value
# -------------------------------------------------
# trans_hs             apb_slave_trans  -     @1007
#   PRESETn            integral         1     'h1  
#   PRDATA             integral         8     'h0  
#   PREADY             integral         1     'h1  
#   PSEL               integral         1     'h0  
#   PWRITE             integral         1     'h1  
#   PENABLE            integral         1     'h1  
#   PADDR              integral         8     'hd8 
#   PWDATA             integral         8     'h23 
#   no_of_wait_cycles  integral         32    'h0  
#   wait_enable        integral         1     'h0  
# -------------------------------------------------
# "
# UVM_INFO ../ENV/apb_slave_mon.sv(66) @ 15: uvm_test_top.env_hm.agent_hs.mon_hs [apb_slave_mon] Data Sent from SLAVE-MONITOR to SCOREBOARD = 
# "-------------------------------------------------
# Name                 Type             Size  Value
# -------------------------------------------------
# trans_hs             apb_slave_trans  -     @1007
#   PRESETn            integral         1     'h1  
#   PRDATA             integral         8     'h0  
#   PREADY             integral         1     'h1  
#   PSEL               integral         1     'h0  
#   PWRITE             integral         1     'h1  
#   PENABLE            integral         1     'h1  
#   PADDR              integral         8     'hd8 
#   PWDATA             integral         8     'h23 
#   no_of_wait_cycles  integral         32    'h0  
#   wait_enable        integral         1     'h0  
# -------------------------------------------------
# "
# UVM_INFO ../ENV/apb_sb.sv(149) @ 15: uvm_test_top.env_hm.sb_h [apb_sb] MASTER_MON_PKT = 
# ----------------------------------------
# Name       Type              Size  Value
# ----------------------------------------
# trans_hm   apb_master_trans  -     @1013
#   PWRITE   integral          1     'h1  
#   PRESETn  integral          1     'h1  
#   PENABLE  integral          1     'h1  
#   PSEL     integral          1     'h0  
#   PWDATA   integral          8     'h23 
#   PADDR    integral          8     'hd8 
#   PREADY   integral          1     'h1  
#   PRDATA   integral          8     'h0  
# ----------------------------------------
# 
# UVM_INFO ../ENV/apb_sb.sv(150) @ 15: uvm_test_top.env_hm.sb_h [apb_sb] SLAVE_MON_PKT = 
# -------------------------------------------------
# Name                 Type             Size  Value
# -------------------------------------------------
# trans_hs             apb_slave_trans  -     @1007
#   PRESETn            integral         1     'h1  
#   PRDATA             integral         8     'h0  
#   PREADY             integral         1     'h1  
#   PSEL               integral         1     'h0  
#   PWRITE             integral         1     'h1  
#   PENABLE            integral         1     'h1  
#   PADDR              integral         8     'hd8 
#   PWDATA             integral         8     'h23 
#   no_of_wait_cycles  integral         32    'h0  
#   wait_enable        integral         1     'h0  
# -------------------------------------------------
# 
# UVM_INFO ../ENV/apb_sb.sv(169) @ 15: uvm_test_top.env_hm.sb_h [SUCCESS] MASTER Write Address = d8 -> SLAVE Write Address = d8
# UVM_INFO ../ENV/apb_sb.sv(170) @ 15: uvm_test_top.env_hm.sb_h [SUCCESS] MASTER Write Data = 23 -> SLAVE Write Data = 23
# UVM_INFO ../ENV/apb_master_drv.sv(75) @ 20: uvm_test_top.env_hm.agent_hm.drv_hm [apb_master_drv] Data Sent from MASTER-DRIVER to INTERFACE = 
# ---------------------------------------------------------------------------------------------------
# Name                           Type              Size  Value                                       
# ---------------------------------------------------------------------------------------------------
# trans_hm                       apb_master_trans  -     @1021                                       
#   PWRITE                       integral          1     'h1                                         
#   PRESETn                      integral          1     'h1                                         
#   PENABLE                      integral          1     'h0                                         
#   PSEL                         integral          1     'h0                                         
#   PWDATA                       integral          8     'h23                                        
#   PADDR                        integral          8     'hd8                                        
#   PREADY                       integral          1     'h0                                         
#   PRDATA                       integral          8     'h0                                         
#   begin_time                   time              64    5                                           
#   depth                        int               32    'd2                                         
#   parent sequence (name)       string            7     seqs_tc                                     
#   parent sequence (full name)  string            44    uvm_test_top.env_hm.agent_hm.seqr_hm.seqs_tc
#   sequencer                    string            36    uvm_test_top.env_hm.agent_hm.seqr_hm        
# ---------------------------------------------------------------------------------------------------
# 
# 
# -------------------- Master Transaction : 2 --------------------
# 
# UVM_INFO ../TEST/apb_low_data_range_seqs.sv(24) @ 20: uvm_test_top.env_hm.agent_hm.seqr_hm@@seqs_tc [apb_low_data_range_seqs] Generated Data From Master SEQS = 
# ---------------------------------------------------------------------------------------------------
# Name                           Type              Size  Value                                       
# ---------------------------------------------------------------------------------------------------
# trans_hm                       apb_master_trans  -     @1082                                       
#   PWRITE                       integral          1     'h1                                         
#   PRESETn                      integral          1     'h1                                         
#   PENABLE                      integral          1     'h0                                         
#   PSEL                         integral          1     'h0                                         
#   PWDATA                       integral          8     'h2e                                        
#   PADDR                        integral          8     'h23                                        
#   PREADY                       integral          1     'h0                                         
#   PRDATA                       integral          8     'h0                                         
#   begin_time                   time              64    20                                          
#   depth                        int               32    'd2                                         
#   parent sequence (name)       string            7     seqs_tc                                     
#   parent sequence (full name)  string            44    uvm_test_top.env_hm.agent_hm.seqr_hm.seqs_tc
#   sequencer                    string            36    uvm_test_top.env_hm.agent_hm.seqr_hm        
# ---------------------------------------------------------------------------------------------------
# 
# UVM_INFO ../ENV/apb_master_drv.sv(68) @ 20: uvm_test_top.env_hm.agent_hm.drv_hm [apb_master_drv] Data Received at MASTER-DRIVER = 
# ---------------------------------------------------------------------------------------------------
# Name                           Type              Size  Value                                       
# ---------------------------------------------------------------------------------------------------
# trans_hm                       apb_master_trans  -     @1082                                       
#   PWRITE                       integral          1     'h1                                         
#   PRESETn                      integral          1     'h1                                         
#   PENABLE                      integral          1     'h0                                         
#   PSEL                         integral          1     'h0                                         
#   PWDATA                       integral          8     'h2e                                        
#   PADDR                        integral          8     'h23                                        
#   PREADY                       integral          1     'h0                                         
#   PRDATA                       integral          8     'h0                                         
#   begin_time                   time              64    20                                          
#   depth                        int               32    'd2                                         
#   parent sequence (name)       string            7     seqs_tc                                     
#   parent sequence (full name)  string            44    uvm_test_top.env_hm.agent_hm.seqr_hm.seqs_tc
#   sequencer                    string            36    uvm_test_top.env_hm.agent_hm.seqr_hm        
# ---------------------------------------------------------------------------------------------------
# 
# UVM_INFO ../ENV/apb_master_mon.sv(73) @ 25: uvm_test_top.env_hm.agent_hm.mon_hm [apb_master_mon] Data Sent from MASTER-MONITOR to SCOREBOARD = 
# ----------------------------------------
# Name       Type              Size  Value
# ----------------------------------------
# trans_hm   apb_master_trans  -     @1013
#   PWRITE   integral          1     'h1  
#   PRESETn  integral          1     'h1  
#   PENABLE  integral          1     'h1  
#   PSEL     integral          1     'h0  
#   PWDATA   integral          8     'h2e 
#   PADDR    integral          8     'h23 
#   PREADY   integral          1     'h1  
#   PRDATA   integral          8     'h0  
# ----------------------------------------
# 
# UVM_INFO ../ENV/apb_master_mon.sv(43) @ 25: uvm_test_top.env_hm.agent_hm.mon_hm [apb_master_mon] Data Received at MASTER-MONITOR from SLAVE-DRIVER = 
# ----------------------------------------
# Name       Type              Size  Value
# ----------------------------------------
# trans_hm   apb_master_trans  -     @1013
#   PWRITE   integral          1     'h1  
#   PRESETn  integral          1     'h1  
#   PENABLE  integral          1     'h1  
#   PSEL     integral          1     'h0  
#   PWDATA   integral          8     'h2e 
#   PADDR    integral          8     'h23 
#   PREADY   integral          1     'h1  
#   PRDATA   integral          8     'h0  
# ----------------------------------------
# 
# UVM_INFO ../ENV/apb_slave_mon.sv(62) @ 25: uvm_test_top.env_hm.agent_hs.mon_hs [apb_slave_mon] Write Transaction Received at SLAVE-MONITOR from MASTER-DRIVER = 
# "-------------------------------------------------
# Name                 Type             Size  Value
# -------------------------------------------------
# trans_hs             apb_slave_trans  -     @1077
#   PRESETn            integral         1     'h1  
#   PRDATA             integral         8     'h0  
#   PREADY             integral         1     'h1  
#   PSEL               integral         1     'h0  
#   PWRITE             integral         1     'h1  
#   PENABLE            integral         1     'h1  
#   PADDR              integral         8     'h23 
#   PWDATA             integral         8     'h2e 
#   no_of_wait_cycles  integral         32    'h0  
#   wait_enable        integral         1     'h0  
# -------------------------------------------------
# "
# UVM_INFO ../ENV/apb_slave_mon.sv(66) @ 25: uvm_test_top.env_hm.agent_hs.mon_hs [apb_slave_mon] Data Sent from SLAVE-MONITOR to SCOREBOARD = 
# "-------------------------------------------------
# Name                 Type             Size  Value
# -------------------------------------------------
# trans_hs             apb_slave_trans  -     @1077
#   PRESETn            integral         1     'h1  
#   PRDATA             integral         8     'h0  
#   PREADY             integral         1     'h1  
#   PSEL               integral         1     'h0  
#   PWRITE             integral         1     'h1  
#   PENABLE            integral         1     'h1  
#   PADDR              integral         8     'h23 
#   PWDATA             integral         8     'h2e 
#   no_of_wait_cycles  integral         32    'h0  
#   wait_enable        integral         1     'h0  
# -------------------------------------------------
# "
# UVM_INFO ../ENV/apb_sb.sv(149) @ 25: uvm_test_top.env_hm.sb_h [apb_sb] MASTER_MON_PKT = 
# ----------------------------------------
# Name       Type              Size  Value
# ----------------------------------------
# trans_hm   apb_master_trans  -     @1013
#   PWRITE   integral          1     'h1  
#   PRESETn  integral          1     'h1  
#   PENABLE  integral          1     'h1  
#   PSEL     integral          1     'h0  
#   PWDATA   integral          8     'h2e 
#   PADDR    integral          8     'h23 
#   PREADY   integral          1     'h1  
#   PRDATA   integral          8     'h0  
# ----------------------------------------
# 
# UVM_INFO ../ENV/apb_sb.sv(150) @ 25: uvm_test_top.env_hm.sb_h [apb_sb] SLAVE_MON_PKT = 
# -------------------------------------------------
# Name                 Type             Size  Value
# -------------------------------------------------
# trans_hs             apb_slave_trans  -     @1077
#   PRESETn            integral         1     'h1  
#   PRDATA             integral         8     'h0  
#   PREADY             integral         1     'h1  
#   PSEL               integral         1     'h0  
#   PWRITE             integral         1     'h1  
#   PENABLE            integral         1     'h1  
#   PADDR              integral         8     'h23 
#   PWDATA             integral         8     'h2e 
#   no_of_wait_cycles  integral         32    'h0  
#   wait_enable        integral         1     'h0  
# -------------------------------------------------
# 
# UVM_INFO ../ENV/apb_sb.sv(169) @ 25: uvm_test_top.env_hm.sb_h [SUCCESS] MASTER Write Address = 23 -> SLAVE Write Address = 23
# UVM_INFO ../ENV/apb_sb.sv(170) @ 25: uvm_test_top.env_hm.sb_h [SUCCESS] MASTER Write Data = 2e -> SLAVE Write Data = 2e
# UVM_INFO ../ENV/apb_master_drv.sv(75) @ 30: uvm_test_top.env_hm.agent_hm.drv_hm [apb_master_drv] Data Sent from MASTER-DRIVER to INTERFACE = 
# ---------------------------------------------------------------------------------------------------
# Name                           Type              Size  Value                                       
# ---------------------------------------------------------------------------------------------------
# trans_hm                       apb_master_trans  -     @1082                                       
#   PWRITE                       integral          1     'h1                                         
#   PRESETn                      integral          1     'h1                                         
#   PENABLE                      integral          1     'h0                                         
#   PSEL                         integral          1     'h0                                         
#   PWDATA                       integral          8     'h2e                                        
#   PADDR                        integral          8     'h23                                        
#   PREADY                       integral          1     'h0                                         
#   PRDATA                       integral          8     'h0                                         
#   begin_time                   time              64    20                                          
#   depth                        int               32    'd2                                         
#   parent sequence (name)       string            7     seqs_tc                                     
#   parent sequence (full name)  string            44    uvm_test_top.env_hm.agent_hm.seqr_hm.seqs_tc
#   sequencer                    string            36    uvm_test_top.env_hm.agent_hm.seqr_hm        
# ---------------------------------------------------------------------------------------------------
# 
# 
# -------------------- Master Transaction : 3 --------------------
# 
# UVM_INFO ../TEST/apb_low_data_range_seqs.sv(24) @ 30: uvm_test_top.env_hm.agent_hm.seqr_hm@@seqs_tc [apb_low_data_range_seqs] Generated Data From Master SEQS = 
# ---------------------------------------------------------------------------------------------------
# Name                           Type              Size  Value                                       
# ---------------------------------------------------------------------------------------------------
# trans_hm                       apb_master_trans  -     @1090                                       
#   PWRITE                       integral          1     'h0                                         
#   PRESETn                      integral          1     'h1                                         
#   PENABLE                      integral          1     'h0                                         
#   PSEL                         integral          1     'h1                                         
#   PWDATA                       integral          8     'hf                                         
#   PADDR                        integral          8     'ha                                         
#   PREADY                       integral          1     'h0                                         
#   PRDATA                       integral          8     'h0                                         
#   begin_time                   time              64    30                                          
#   depth                        int               32    'd2                                         
#   parent sequence (name)       string            7     seqs_tc                                     
#   parent sequence (full name)  string            44    uvm_test_top.env_hm.agent_hm.seqr_hm.seqs_tc
#   sequencer                    string            36    uvm_test_top.env_hm.agent_hm.seqr_hm        
# ---------------------------------------------------------------------------------------------------
# 
# UVM_INFO ../ENV/apb_master_drv.sv(68) @ 30: uvm_test_top.env_hm.agent_hm.drv_hm [apb_master_drv] Data Received at MASTER-DRIVER = 
# ---------------------------------------------------------------------------------------------------
# Name                           Type              Size  Value                                       
# ---------------------------------------------------------------------------------------------------
# trans_hm                       apb_master_trans  -     @1090                                       
#   PWRITE                       integral          1     'h0                                         
#   PRESETn                      integral          1     'h1                                         
#   PENABLE                      integral          1     'h0                                         
#   PSEL                         integral          1     'h1                                         
#   PWDATA                       integral          8     'hf                                         
#   PADDR                        integral          8     'ha                                         
#   PREADY                       integral          1     'h0                                         
#   PRDATA                       integral          8     'h0                                         
#   begin_time                   time              64    30                                          
#   depth                        int               32    'd2                                         
#   parent sequence (name)       string            7     seqs_tc                                     
#   parent sequence (full name)  string            44    uvm_test_top.env_hm.agent_hm.seqr_hm.seqs_tc
#   sequencer                    string            36    uvm_test_top.env_hm.agent_hm.seqr_hm        
# ---------------------------------------------------------------------------------------------------
# 
# UVM_INFO ../ENV/apb_slave_drv.sv(32) @ 45: uvm_test_top.env_hm.agent_hs.drv_hs [apb_slave_drv] Data Sent from SLAVE-DRIVER to INTERFACE = 
# --------------------------------------------------------------------------------------------------
# Name                           Type             Size  Value                                       
# --------------------------------------------------------------------------------------------------
# trans_hs                       apb_slave_trans  -     @1025                                       
#   PRESETn                      integral         1     'h0                                         
#   PRDATA                       integral         8     'h0                                         
#   PREADY                       integral         1     'h1                                         
#   PSEL                         integral         1     'h0                                         
#   PWRITE                       integral         1     'h0                                         
#   PENABLE                      integral         1     'h0                                         
#   PADDR                        integral         8     'h0                                         
#   PWDATA                       integral         8     'h0                                         
#   no_of_wait_cycles            integral         32    'h3                                         
#   wait_enable                  integral         1     'h1                                         
#   begin_time                   time             64    0                                           
#   depth                        int              32    'd2                                         
#   parent sequence (name)       string           7     seqs_hs                                     
#   parent sequence (full name)  string           44    uvm_test_top.env_hm.agent_hs.seqr_hs.seqs_hs
#   sequencer                    string           36    uvm_test_top.env_hm.agent_hs.seqr_hs        
# --------------------------------------------------------------------------------------------------
# 
# UVM_INFO ../ENV/apb_slave_mon.sv(64) @ 45: uvm_test_top.env_hm.agent_hs.mon_hs [apb_slave_mon] Read Transaction Received at SLAVE-MONITOR from MASTER-DRIVER = 
# "-------------------------------------------------
# Name                 Type             Size  Value
# -------------------------------------------------
# trans_hs             apb_slave_trans  -     @1086
#   PRESETn            integral         1     'h1  
#   PRDATA             integral         8     'h0  
#   PREADY             integral         1     'h1  
#   PSEL               integral         1     'h1  
#   PWRITE             integral         1     'h0  
#   PENABLE            integral         1     'h1  
#   PADDR              integral         8     'ha  
#   PWDATA             integral         8     'hf  
#   no_of_wait_cycles  integral         32    'h0  
#   wait_enable        integral         1     'h0  
# -------------------------------------------------
# "
# UVM_INFO ../ENV/apb_slave_mon.sv(66) @ 45: uvm_test_top.env_hm.agent_hs.mon_hs [apb_slave_mon] Data Sent from SLAVE-MONITOR to SCOREBOARD = 
# "-------------------------------------------------
# Name                 Type             Size  Value
# -------------------------------------------------
# trans_hs             apb_slave_trans  -     @1086
#   PRESETn            integral         1     'h1  
#   PRDATA             integral         8     'h0  
#   PREADY             integral         1     'h1  
#   PSEL               integral         1     'h1  
#   PWRITE             integral         1     'h0  
#   PENABLE            integral         1     'h1  
#   PADDR              integral         8     'ha  
#   PWDATA             integral         8     'hf  
#   no_of_wait_cycles  integral         32    'h0  
#   wait_enable        integral         1     'h0  
# -------------------------------------------------
# "
# UVM_INFO ../ENV/apb_master_mon.sv(73) @ 45: uvm_test_top.env_hm.agent_hm.mon_hm [apb_master_mon] Data Sent from MASTER-MONITOR to SCOREBOARD = 
# ----------------------------------------
# Name       Type              Size  Value
# ----------------------------------------
# trans_hm   apb_master_trans  -     @1013
#   PWRITE   integral          1     'h0  
#   PRESETn  integral          1     'h1  
#   PENABLE  integral          1     'h1  
#   PSEL     integral          1     'h1  
#   PWDATA   integral          8     'hf  
#   PADDR    integral          8     'ha  
#   PREADY   integral          1     'h1  
#   PRDATA   integral          8     'h0  
# ----------------------------------------
# 
# UVM_INFO ../ENV/apb_master_mon.sv(43) @ 45: uvm_test_top.env_hm.agent_hm.mon_hm [apb_master_mon] Data Received at MASTER-MONITOR from SLAVE-DRIVER = 
# ----------------------------------------
# Name       Type              Size  Value
# ----------------------------------------
# trans_hm   apb_master_trans  -     @1013
#   PWRITE   integral          1     'h0  
#   PRESETn  integral          1     'h1  
#   PENABLE  integral          1     'h1  
#   PSEL     integral          1     'h1  
#   PWDATA   integral          8     'hf  
#   PADDR    integral          8     'ha  
#   PREADY   integral          1     'h1  
#   PRDATA   integral          8     'h0  
# ----------------------------------------
# 
# UVM_INFO ../ENV/apb_sb.sv(149) @ 45: uvm_test_top.env_hm.sb_h [apb_sb] MASTER_MON_PKT = 
# ----------------------------------------
# Name       Type              Size  Value
# ----------------------------------------
# trans_hm   apb_master_trans  -     @1013
#   PWRITE   integral          1     'h0  
#   PRESETn  integral          1     'h1  
#   PENABLE  integral          1     'h1  
#   PSEL     integral          1     'h1  
#   PWDATA   integral          8     'hf  
#   PADDR    integral          8     'ha  
#   PREADY   integral          1     'h1  
#   PRDATA   integral          8     'h0  
# ----------------------------------------
# 
# UVM_INFO ../ENV/apb_sb.sv(150) @ 45: uvm_test_top.env_hm.sb_h [apb_sb] SLAVE_MON_PKT = 
# -------------------------------------------------
# Name                 Type             Size  Value
# -------------------------------------------------
# trans_hs             apb_slave_trans  -     @1086
#   PRESETn            integral         1     'h1  
#   PRDATA             integral         8     'h0  
#   PREADY             integral         1     'h1  
#   PSEL               integral         1     'h1  
#   PWRITE             integral         1     'h0  
#   PENABLE            integral         1     'h1  
#   PADDR              integral         8     'ha  
#   PWDATA             integral         8     'hf  
#   no_of_wait_cycles  integral         32    'h0  
#   wait_enable        integral         1     'h0  
# -------------------------------------------------
# 
# ** Warning: (vsim-3829) ../ENV/apb_sb.sv(190): Non-existent associative array entry. Returning default value.
# ** Warning: (vsim-3829) ../ENV/apb_sb.sv(192): Non-existent associative array entry. Returning default value.
# ** Warning: (vsim-3829) ../ENV/apb_sb.sv(195): Non-existent associative array entry. Returning default value.
# UVM_INFO ../ENV/apb_sb.sv(195) @ 45: uvm_test_top.env_hm.sb_h [SUCCESS] MASTER Read Data = 0 -> SLAVE Read Data = 0
# UVM_INFO ../ENV/apb_slave_drv.sv(29) @ 45: uvm_test_top.env_hm.agent_hs.drv_hs [apb_slave_drv] Data Received at SLAVE-DRIVER = 
# --------------------------------------------------------------------------------------------------
# Name                           Type             Size  Value                                       
# --------------------------------------------------------------------------------------------------
# trans_hs                       apb_slave_trans  -     @1095                                       
#   PRESETn                      integral         1     'h0                                         
#   PRDATA                       integral         8     'h0                                         
#   PREADY                       integral         1     'h1                                         
#   PSEL                         integral         1     'h0                                         
#   PWRITE                       integral         1     'h0                                         
#   PENABLE                      integral         1     'h0                                         
#   PADDR                        integral         8     'h0                                         
#   PWDATA                       integral         8     'h0                                         
#   no_of_wait_cycles            integral         32    'h1                                         
#   wait_enable                  integral         1     'h1                                         
#   begin_time                   time             64    45                                          
#   depth                        int              32    'd2                                         
#   parent sequence (name)       string           7     seqs_hs                                     
#   parent sequence (full name)  string           44    uvm_test_top.env_hm.agent_hs.seqr_hs.seqs_hs
#   sequencer                    string           36    uvm_test_top.env_hm.agent_hs.seqr_hs        
# --------------------------------------------------------------------------------------------------
# 
# UVM_INFO ../ENV/apb_master_drv.sv(75) @ 50: uvm_test_top.env_hm.agent_hm.drv_hm [apb_master_drv] Data Sent from MASTER-DRIVER to INTERFACE = 
# ---------------------------------------------------------------------------------------------------
# Name                           Type              Size  Value                                       
# ---------------------------------------------------------------------------------------------------
# trans_hm                       apb_master_trans  -     @1090                                       
#   PWRITE                       integral          1     'h0                                         
#   PRESETn                      integral          1     'h1                                         
#   PENABLE                      integral          1     'h0                                         
#   PSEL                         integral          1     'h1                                         
#   PWDATA                       integral          8     'hf                                         
#   PADDR                        integral          8     'ha                                         
#   PREADY                       integral          1     'h0                                         
#   PRDATA                       integral          8     'h0                                         
#   begin_time                   time              64    30                                          
#   depth                        int               32    'd2                                         
#   parent sequence (name)       string            7     seqs_tc                                     
#   parent sequence (full name)  string            44    uvm_test_top.env_hm.agent_hm.seqr_hm.seqs_tc
#   sequencer                    string            36    uvm_test_top.env_hm.agent_hm.seqr_hm        
# ---------------------------------------------------------------------------------------------------
# 
# 
# -------------------- Master Transaction : 4 --------------------
# 
# UVM_INFO ../TEST/apb_low_data_range_seqs.sv(24) @ 50: uvm_test_top.env_hm.agent_hm.seqr_hm@@seqs_tc [apb_low_data_range_seqs] Generated Data From Master SEQS = 
# ---------------------------------------------------------------------------------------------------
# Name                           Type              Size  Value                                       
# ---------------------------------------------------------------------------------------------------
# trans_hm                       apb_master_trans  -     @1103                                       
#   PWRITE                       integral          1     'h1                                         
#   PRESETn                      integral          1     'h1                                         
#   PENABLE                      integral          1     'h1                                         
#   PSEL                         integral          1     'h1                                         
#   PWDATA                       integral          8     'h6                                         
#   PADDR                        integral          8     'h1d                                        
#   PREADY                       integral          1     'h0                                         
#   PRDATA                       integral          8     'h0                                         
#   begin_time                   time              64    50                                          
#   depth                        int               32    'd2                                         
#   parent sequence (name)       string            7     seqs_tc                                     
#   parent sequence (full name)  string            44    uvm_test_top.env_hm.agent_hm.seqr_hm.seqs_tc
#   sequencer                    string            36    uvm_test_top.env_hm.agent_hm.seqr_hm        
# ---------------------------------------------------------------------------------------------------
# 
# UVM_INFO ../ENV/apb_master_drv.sv(68) @ 50: uvm_test_top.env_hm.agent_hm.drv_hm [apb_master_drv] Data Received at MASTER-DRIVER = 
# ---------------------------------------------------------------------------------------------------
# Name                           Type              Size  Value                                       
# ---------------------------------------------------------------------------------------------------
# trans_hm                       apb_master_trans  -     @1103                                       
#   PWRITE                       integral          1     'h1                                         
#   PRESETn                      integral          1     'h1                                         
#   PENABLE                      integral          1     'h1                                         
#   PSEL                         integral          1     'h1                                         
#   PWDATA                       integral          8     'h6                                         
#   PADDR                        integral          8     'h1d                                        
#   PREADY                       integral          1     'h0                                         
#   PRDATA                       integral          8     'h0                                         
#   begin_time                   time              64    50                                          
#   depth                        int               32    'd2                                         
#   parent sequence (name)       string            7     seqs_tc                                     
#   parent sequence (full name)  string            44    uvm_test_top.env_hm.agent_hm.seqr_hm.seqs_tc
#   sequencer                    string            36    uvm_test_top.env_hm.agent_hm.seqr_hm        
# ---------------------------------------------------------------------------------------------------
# 
# UVM_INFO ../ENV/apb_slave_drv.sv(32) @ 55: uvm_test_top.env_hm.agent_hs.drv_hs [apb_slave_drv] Data Sent from SLAVE-DRIVER to INTERFACE = 
# --------------------------------------------------------------------------------------------------
# Name                           Type             Size  Value                                       
# --------------------------------------------------------------------------------------------------
# trans_hs                       apb_slave_trans  -     @1095                                       
#   PRESETn                      integral         1     'h0                                         
#   PRDATA                       integral         8     'h0                                         
#   PREADY                       integral         1     'h1                                         
#   PSEL                         integral         1     'h0                                         
#   PWRITE                       integral         1     'h0                                         
#   PENABLE                      integral         1     'h0                                         
#   PADDR                        integral         8     'h0                                         
#   PWDATA                       integral         8     'h0                                         
#   no_of_wait_cycles            integral         32    'h1                                         
#   wait_enable                  integral         1     'h1                                         
#   begin_time                   time             64    45                                          
#   depth                        int              32    'd2                                         
#   parent sequence (name)       string           7     seqs_hs                                     
#   parent sequence (full name)  string           44    uvm_test_top.env_hm.agent_hs.seqr_hs.seqs_hs
#   sequencer                    string           36    uvm_test_top.env_hm.agent_hs.seqr_hs        
# --------------------------------------------------------------------------------------------------
# 
# UVM_INFO ../ENV/apb_master_mon.sv(73) @ 55: uvm_test_top.env_hm.agent_hm.mon_hm [apb_master_mon] Data Sent from MASTER-MONITOR to SCOREBOARD = 
# ----------------------------------------
# Name       Type              Size  Value
# ----------------------------------------
# trans_hm   apb_master_trans  -     @1013
#   PWRITE   integral          1     'h1  
#   PRESETn  integral          1     'h1  
#   PENABLE  integral          1     'h1  
#   PSEL     integral          1     'h1  
#   PWDATA   integral          8     'h6  
#   PADDR    integral          8     'h1d 
#   PREADY   integral          1     'h1  
#   PRDATA   integral          8     'h0  
# ----------------------------------------
# 
# UVM_INFO ../ENV/apb_master_mon.sv(43) @ 55: uvm_test_top.env_hm.agent_hm.mon_hm [apb_master_mon] Data Received at MASTER-MONITOR from SLAVE-DRIVER = 
# ----------------------------------------
# Name       Type              Size  Value
# ----------------------------------------
# trans_hm   apb_master_trans  -     @1013
#   PWRITE   integral          1     'h1  
#   PRESETn  integral          1     'h1  
#   PENABLE  integral          1     'h1  
#   PSEL     integral          1     'h1  
#   PWDATA   integral          8     'h6  
#   PADDR    integral          8     'h1d 
#   PREADY   integral          1     'h1  
#   PRDATA   integral          8     'h0  
# ----------------------------------------
# 
# UVM_INFO ../ENV/apb_slave_mon.sv(62) @ 55: uvm_test_top.env_hm.agent_hs.mon_hs [apb_slave_mon] Write Transaction Received at SLAVE-MONITOR from MASTER-DRIVER = 
# "-------------------------------------------------
# Name                 Type             Size  Value
# -------------------------------------------------
# trans_hs             apb_slave_trans  -     @1099
#   PRESETn            integral         1     'h1  
#   PRDATA             integral         8     'h0  
#   PREADY             integral         1     'h1  
#   PSEL               integral         1     'h1  
#   PWRITE             integral         1     'h1  
#   PENABLE            integral         1     'h1  
#   PADDR              integral         8     'h1d 
#   PWDATA             integral         8     'h6  
#   no_of_wait_cycles  integral         32    'h0  
#   wait_enable        integral         1     'h0  
# -------------------------------------------------
# "
# UVM_INFO ../ENV/apb_slave_mon.sv(66) @ 55: uvm_test_top.env_hm.agent_hs.mon_hs [apb_slave_mon] Data Sent from SLAVE-MONITOR to SCOREBOARD = 
# "-------------------------------------------------
# Name                 Type             Size  Value
# -------------------------------------------------
# trans_hs             apb_slave_trans  -     @1099
#   PRESETn            integral         1     'h1  
#   PRDATA             integral         8     'h0  
#   PREADY             integral         1     'h1  
#   PSEL               integral         1     'h1  
#   PWRITE             integral         1     'h1  
#   PENABLE            integral         1     'h1  
#   PADDR              integral         8     'h1d 
#   PWDATA             integral         8     'h6  
#   no_of_wait_cycles  integral         32    'h0  
#   wait_enable        integral         1     'h0  
# -------------------------------------------------
# "
# UVM_INFO ../ENV/apb_sb.sv(149) @ 55: uvm_test_top.env_hm.sb_h [apb_sb] MASTER_MON_PKT = 
# ----------------------------------------
# Name       Type              Size  Value
# ----------------------------------------
# trans_hm   apb_master_trans  -     @1013
#   PWRITE   integral          1     'h1  
#   PRESETn  integral          1     'h1  
#   PENABLE  integral          1     'h1  
#   PSEL     integral          1     'h1  
#   PWDATA   integral          8     'h6  
#   PADDR    integral          8     'h1d 
#   PREADY   integral          1     'h1  
#   PRDATA   integral          8     'h0  
# ----------------------------------------
# 
# UVM_INFO ../ENV/apb_sb.sv(150) @ 55: uvm_test_top.env_hm.sb_h [apb_sb] SLAVE_MON_PKT = 
# -------------------------------------------------
# Name                 Type             Size  Value
# -------------------------------------------------
# trans_hs             apb_slave_trans  -     @1099
#   PRESETn            integral         1     'h1  
#   PRDATA             integral         8     'h0  
#   PREADY             integral         1     'h1  
#   PSEL               integral         1     'h1  
#   PWRITE             integral         1     'h1  
#   PENABLE            integral         1     'h1  
#   PADDR              integral         8     'h1d 
#   PWDATA             integral         8     'h6  
#   no_of_wait_cycles  integral         32    'h0  
#   wait_enable        integral         1     'h0  
# -------------------------------------------------
# 
# UVM_INFO ../ENV/apb_sb.sv(169) @ 55: uvm_test_top.env_hm.sb_h [SUCCESS] MASTER Write Address = 1d -> SLAVE Write Address = 1d
# UVM_INFO ../ENV/apb_sb.sv(170) @ 55: uvm_test_top.env_hm.sb_h [SUCCESS] MASTER Write Data = 6 -> SLAVE Write Data = 6
# UVM_INFO ../ENV/apb_slave_drv.sv(29) @ 55: uvm_test_top.env_hm.agent_hs.drv_hs [apb_slave_drv] Data Received at SLAVE-DRIVER = 
# --------------------------------------------------------------------------------------------------
# Name                           Type             Size  Value                                       
# --------------------------------------------------------------------------------------------------
# trans_hs                       apb_slave_trans  -     @1107                                       
#   PRESETn                      integral         1     'h0                                         
#   PRDATA                       integral         8     'h0                                         
#   PREADY                       integral         1     'h1                                         
#   PSEL                         integral         1     'h0                                         
#   PWRITE                       integral         1     'h0                                         
#   PENABLE                      integral         1     'h0                                         
#   PADDR                        integral         8     'h0                                         
#   PWDATA                       integral         8     'h0                                         
#   no_of_wait_cycles            integral         32    'h1                                         
#   wait_enable                  integral         1     'h1                                         
#   begin_time                   time             64    55                                          
#   depth                        int              32    'd2                                         
#   parent sequence (name)       string           7     seqs_hs                                     
#   parent sequence (full name)  string           44    uvm_test_top.env_hm.agent_hs.seqr_hs.seqs_hs
#   sequencer                    string           36    uvm_test_top.env_hm.agent_hs.seqr_hs        
# --------------------------------------------------------------------------------------------------
# 
# UVM_INFO ../ENV/apb_master_drv.sv(75) @ 60: uvm_test_top.env_hm.agent_hm.drv_hm [apb_master_drv] Data Sent from MASTER-DRIVER to INTERFACE = 
# ---------------------------------------------------------------------------------------------------
# Name                           Type              Size  Value                                       
# ---------------------------------------------------------------------------------------------------
# trans_hm                       apb_master_trans  -     @1103                                       
#   PWRITE                       integral          1     'h1                                         
#   PRESETn                      integral          1     'h1                                         
#   PENABLE                      integral          1     'h1                                         
#   PSEL                         integral          1     'h1                                         
#   PWDATA                       integral          8     'h6                                         
#   PADDR                        integral          8     'h1d                                        
#   PREADY                       integral          1     'h0                                         
#   PRDATA                       integral          8     'h0                                         
#   begin_time                   time              64    50                                          
#   depth                        int               32    'd2                                         
#   parent sequence (name)       string            7     seqs_tc                                     
#   parent sequence (full name)  string            44    uvm_test_top.env_hm.agent_hm.seqr_hm.seqs_tc
#   sequencer                    string            36    uvm_test_top.env_hm.agent_hm.seqr_hm        
# ---------------------------------------------------------------------------------------------------
# 
# 
# -------------------- Master Transaction : 5 --------------------
# 
# UVM_INFO ../TEST/apb_low_data_range_seqs.sv(24) @ 60: uvm_test_top.env_hm.agent_hm.seqr_hm@@seqs_tc [apb_low_data_range_seqs] Generated Data From Master SEQS = 
# ---------------------------------------------------------------------------------------------------
# Name                           Type              Size  Value                                       
# ---------------------------------------------------------------------------------------------------
# trans_hm                       apb_master_trans  -     @1115                                       
#   PWRITE                       integral          1     'h0                                         
#   PRESETn                      integral          1     'h1                                         
#   PENABLE                      integral          1     'h1                                         
#   PSEL                         integral          1     'h0                                         
#   PWDATA                       integral          8     'h40                                        
#   PADDR                        integral          8     'h64                                        
#   PREADY                       integral          1     'h0                                         
#   PRDATA                       integral          8     'h0                                         
#   begin_time                   time              64    60                                          
#   depth                        int               32    'd2                                         
#   parent sequence (name)       string            7     seqs_tc                                     
#   parent sequence (full name)  string            44    uvm_test_top.env_hm.agent_hm.seqr_hm.seqs_tc
#   sequencer                    string            36    uvm_test_top.env_hm.agent_hm.seqr_hm        
# ---------------------------------------------------------------------------------------------------
# 
# UVM_INFO ../ENV/apb_master_drv.sv(68) @ 60: uvm_test_top.env_hm.agent_hm.drv_hm [apb_master_drv] Data Received at MASTER-DRIVER = 
# ---------------------------------------------------------------------------------------------------
# Name                           Type              Size  Value                                       
# ---------------------------------------------------------------------------------------------------
# trans_hm                       apb_master_trans  -     @1115                                       
#   PWRITE                       integral          1     'h0                                         
#   PRESETn                      integral          1     'h1                                         
#   PENABLE                      integral          1     'h1                                         
#   PSEL                         integral          1     'h0                                         
#   PWDATA                       integral          8     'h40                                        
#   PADDR                        integral          8     'h64                                        
#   PREADY                       integral          1     'h0                                         
#   PRDATA                       integral          8     'h0                                         
#   begin_time                   time              64    60                                          
#   depth                        int               32    'd2                                         
#   parent sequence (name)       string            7     seqs_tc                                     
#   parent sequence (full name)  string            44    uvm_test_top.env_hm.agent_hm.seqr_hm.seqs_tc
#   sequencer                    string            36    uvm_test_top.env_hm.agent_hm.seqr_hm        
# ---------------------------------------------------------------------------------------------------
# 
# UVM_INFO ../ENV/apb_master_mon.sv(73) @ 65: uvm_test_top.env_hm.agent_hm.mon_hm [apb_master_mon] Data Sent from MASTER-MONITOR to SCOREBOARD = 
# ----------------------------------------
# Name       Type              Size  Value
# ----------------------------------------
# trans_hm   apb_master_trans  -     @1013
#   PWRITE   integral          1     'h0  
#   PRESETn  integral          1     'h1  
#   PENABLE  integral          1     'h1  
#   PSEL     integral          1     'h0  
#   PWDATA   integral          8     'h40 
#   PADDR    integral          8     'h64 
#   PREADY   integral          1     'h1  
#   PRDATA   integral          8     'h0  
# ----------------------------------------
# 
# UVM_INFO ../ENV/apb_master_mon.sv(43) @ 65: uvm_test_top.env_hm.agent_hm.mon_hm [apb_master_mon] Data Received at MASTER-MONITOR from SLAVE-DRIVER = 
# ----------------------------------------
# Name       Type              Size  Value
# ----------------------------------------
# trans_hm   apb_master_trans  -     @1013
#   PWRITE   integral          1     'h0  
#   PRESETn  integral          1     'h1  
#   PENABLE  integral          1     'h1  
#   PSEL     integral          1     'h0  
#   PWDATA   integral          8     'h40 
#   PADDR    integral          8     'h64 
#   PREADY   integral          1     'h1  
#   PRDATA   integral          8     'h0  
# ----------------------------------------
# 
# UVM_INFO ../ENV/apb_slave_mon.sv(64) @ 65: uvm_test_top.env_hm.agent_hs.mon_hs [apb_slave_mon] Read Transaction Received at SLAVE-MONITOR from MASTER-DRIVER = 
# "-------------------------------------------------
# Name                 Type             Size  Value
# -------------------------------------------------
# trans_hs             apb_slave_trans  -     @1111
#   PRESETn            integral         1     'h1  
#   PRDATA             integral         8     'h0  
#   PREADY             integral         1     'h1  
#   PSEL               integral         1     'h0  
#   PWRITE             integral         1     'h0  
#   PENABLE            integral         1     'h1  
#   PADDR              integral         8     'h64 
#   PWDATA             integral         8     'h40 
#   no_of_wait_cycles  integral         32    'h0  
#   wait_enable        integral         1     'h0  
# -------------------------------------------------
# "
# UVM_INFO ../ENV/apb_slave_mon.sv(66) @ 65: uvm_test_top.env_hm.agent_hs.mon_hs [apb_slave_mon] Data Sent from SLAVE-MONITOR to SCOREBOARD = 
# "-------------------------------------------------
# Name                 Type             Size  Value
# -------------------------------------------------
# trans_hs             apb_slave_trans  -     @1111
#   PRESETn            integral         1     'h1  
#   PRDATA             integral         8     'h0  
#   PREADY             integral         1     'h1  
#   PSEL               integral         1     'h0  
#   PWRITE             integral         1     'h0  
#   PENABLE            integral         1     'h1  
#   PADDR              integral         8     'h64 
#   PWDATA             integral         8     'h40 
#   no_of_wait_cycles  integral         32    'h0  
#   wait_enable        integral         1     'h0  
# -------------------------------------------------
# "
# UVM_INFO ../ENV/apb_sb.sv(149) @ 65: uvm_test_top.env_hm.sb_h [apb_sb] MASTER_MON_PKT = 
# ----------------------------------------
# Name       Type              Size  Value
# ----------------------------------------
# trans_hm   apb_master_trans  -     @1013
#   PWRITE   integral          1     'h0  
#   PRESETn  integral          1     'h1  
#   PENABLE  integral          1     'h1  
#   PSEL     integral          1     'h0  
#   PWDATA   integral          8     'h40 
#   PADDR    integral          8     'h64 
#   PREADY   integral          1     'h1  
#   PRDATA   integral          8     'h0  
# ----------------------------------------
# 
# UVM_INFO ../ENV/apb_sb.sv(150) @ 65: uvm_test_top.env_hm.sb_h [apb_sb] SLAVE_MON_PKT = 
# -------------------------------------------------
# Name                 Type             Size  Value
# -------------------------------------------------
# trans_hs             apb_slave_trans  -     @1111
#   PRESETn            integral         1     'h1  
#   PRDATA             integral         8     'h0  
#   PREADY             integral         1     'h1  
#   PSEL               integral         1     'h0  
#   PWRITE             integral         1     'h0  
#   PENABLE            integral         1     'h1  
#   PADDR              integral         8     'h64 
#   PWDATA             integral         8     'h40 
#   no_of_wait_cycles  integral         32    'h0  
#   wait_enable        integral         1     'h0  
# -------------------------------------------------
# 
# ** Warning: (vsim-3829) ../ENV/apb_sb.sv(190): Non-existent associative array entry. Returning default value.
# ** Warning: (vsim-3829) ../ENV/apb_sb.sv(192): Non-existent associative array entry. Returning default value.
# ** Warning: (vsim-3829) ../ENV/apb_sb.sv(195): Non-existent associative array entry. Returning default value.
# UVM_INFO ../ENV/apb_sb.sv(195) @ 65: uvm_test_top.env_hm.sb_h [SUCCESS] MASTER Read Data = 0 -> SLAVE Read Data = 0
# UVM_INFO ../ENV/apb_master_drv.sv(75) @ 70: uvm_test_top.env_hm.agent_hm.drv_hm [apb_master_drv] Data Sent from MASTER-DRIVER to INTERFACE = 
# ---------------------------------------------------------------------------------------------------
# Name                           Type              Size  Value                                       
# ---------------------------------------------------------------------------------------------------
# trans_hm                       apb_master_trans  -     @1115                                       
#   PWRITE                       integral          1     'h0                                         
#   PRESETn                      integral          1     'h1                                         
#   PENABLE                      integral          1     'h1                                         
#   PSEL                         integral          1     'h0                                         
#   PWDATA                       integral          8     'h40                                        
#   PADDR                        integral          8     'h64                                        
#   PREADY                       integral          1     'h0                                         
#   PRDATA                       integral          8     'h0                                         
#   begin_time                   time              64    60                                          
#   depth                        int               32    'd2                                         
#   parent sequence (name)       string            7     seqs_tc                                     
#   parent sequence (full name)  string            44    uvm_test_top.env_hm.agent_hm.seqr_hm.seqs_tc
#   sequencer                    string            36    uvm_test_top.env_hm.agent_hm.seqr_hm        
# ---------------------------------------------------------------------------------------------------
# 
# ------ Execution Done Run-Phase in Test -------
# UVM_INFO verilog_src/uvm-1.1d/src/base/uvm_objection.svh(1268) @ 70: reporter [TEST_DONE] 'run' phase is ready to proceed to the 'extract' phase
# UVM_INFO ../ENV/apb_master_mon.sv(80) @ 70: uvm_test_top.env_hm.agent_hm.mon_hm [uvm_test_top.env_hm.agent_hm.mon_hm] num_of_packets_sampled           5
# mem_model[29] = 6
# mem_model[35] = 2e
# mem_model[216] = 23
# 
# ---------------------------------------
# 	    SIMULATION REPORT 		
# ---------------------------------------
# Total Transactions = 5
# ---------------------------------------
# WRITE Transactions : 
# 	 TOTAL		= 3 
# 	 SUCCEED	= 3 
# 	 FAILED		= 0
# ---------------------------------------
# READ  Transactions : 
# 	 TOTAL		= 2 
# 	 SUCCEED	= 2 
# 	 FAILED		= 0
# 
# ---------------------------------------
# 	    COVERAGE REPORT 		
# ---------------------------------------
# Master IP Coverage = 51.85
# Slave  IP Coverage = 42.86
# ---------------------------------------
# 
# --- UVM Report Summary ---
# 
# ** Report counts by severity
# UVM_INFO :   64
# UVM_WARNING :    0
# UVM_ERROR :    0
# UVM_FATAL :    0
# ** Report counts by id
# [Questa UVM]     2
# [RNTST]     1
# [SUCCESS]     8
# [TEST_DONE]     1
# [UVMTOP]     1
# [apb_low_data_range_seqs]     5
# [apb_master_drv]    10
# [apb_master_mon]    10
# [apb_sb]    10
# [apb_slave_drv]     5
# [apb_slave_mon]    10
# [uvm_test_top.env_hm.agent_hm.mon_hm]     1
# ** Note: $finish    : C:/questasim64_10.4e/win64/../verilog_src/uvm-1.1d/src/base/uvm_root.svh(430)
#    Time: 70 ns  Iteration: 61  Instance: /apb_top
# Saving coverage database on exit...
# End time: 13:20:05 on Jun 20,2024, Elapsed time: 0:00:03
# Errors: 0, Warnings: 7
